T12BC 000:078.608   SEGGER J-Link V7.66a Log File
T12BC 000:078.797   DLL Compiled: May 19 2022 15:13:27
T12BC 000:078.810   Logging started @ 2023-05-23 02:39
T12BC 000:078.822 - 78.828ms
T12BC 000:078.844 JLINK_SetWarnOutHandler(...)
T12BC 000:078.860 - 0.021ms
T12BC 000:078.875 JLINK_OpenEx(...)
T12BC 000:080.488   Firmware: J-Link OB-SAM3U128 V3 compiled Feb  2 2021 16:48:08
T12BC 000:080.960   Firmware: J-Link OB-SAM3U128 V3 compiled Feb  2 2021 16:48:08
T12BC 000:084.534   Hardware: V3.00
T12BC 000:084.571   S/N: 483131595
T12BC 000:084.588   OEM: SEGGER
T12BC 000:084.605   Feature(s): None
T12BC 000:086.567   TELNET listener socket opened on port 19021
T12BC 000:086.750   WEBSRV WEBSRV_Init(): Starting webserver thread(s)
T12BC 000:087.090   WEBSRV Webserver running on local port 19080
T12BC 000:118.568 - 39.774ms returns "O.K."
T12BC 000:118.710 JLINK_SetErrorOutHandler(...)
T12BC 000:118.723 - 0.017ms
T12BC 000:118.757 JLINK_ExecCommand("ProjectFile = "F:\project\Maxeye\check_1F\USI216_cap_issue\ble\tool\Keil_5\JLinkSettings.ini"", ...). 
T12BC 000:134.422   Ref file found at: D:\Keil_v5\ARM\Segger\JLinkDevices.ref
T12BC 000:134.573   REF file references invalid XML file: D:\Program Files\SEGGER\JLink\JLinkDevices.xml
T12BC 000:134.861 - 16.111ms returns 0x00
T12BC 000:146.491 JLINK_ExecCommand("Device = ARMCM4_FP", ...). 
T12BC 000:153.608   Device "CORTEX-M4" selected.
T12BC 000:154.260 - 7.736ms returns 0x00
T12BC 000:154.281 JLINK_ExecCommand("DisableConnectionTimeout", ...). 
T12BC 000:154.299 - 0.011ms returns 0x01
T12BC 000:154.310 JLINK_GetHardwareVersion()
T12BC 000:154.317 - 0.010ms returns 30000
T12BC 000:154.326 JLINK_GetDLLVersion()
T12BC 000:154.333 - 0.010ms returns 76601
T12BC 000:154.342 JLINK_GetOEMString(...)
T12BC 000:154.379 JLINK_GetFirmwareString(...)
T12BC 000:154.386 - 0.010ms
T12BC 000:177.962 JLINK_GetDLLVersion()
T12BC 000:177.988 - 0.030ms returns 76601
T12BC 000:177.999 JLINK_GetCompileDateTime()
T12BC 000:178.007 - 0.010ms
T12BC 000:188.017 JLINK_GetFirmwareString(...)
T12BC 000:188.042 - 0.047ms
T12BC 000:198.981 JLINK_GetHardwareVersion()
T12BC 000:199.009 - 0.032ms returns 30000
T12BC 000:210.015 JLINK_GetSN()
T12BC 000:210.065 - 0.054ms returns 483131595
T12BC 000:220.231 JLINK_GetOEMString(...)
T12BC 000:230.480 JLINK_TIF_Select(JLINKARM_TIF_SWD)
T12BC 000:232.031 - 1.585ms returns 0x00
T12BC 000:232.099 JLINK_HasError()
T12BC 000:232.148 JLINK_SetSpeed(5000)
T12BC 000:232.469 - 0.334ms
T12BC 000:232.494 JLINK_GetId()
T12BC 000:243.496   Found SW-DP with ID 0x2BA01477
T12BC 000:255.749   DPIDR: 0x2BA01477
T12BC 000:265.723   CoreSight SoC-400 or earlier
T12BC 000:274.005   Scanning AP map to find all available APs
T12BC 000:288.110   AP[1]: Stopped AP scan as end of AP map has been reached
T12BC 000:296.189   AP[0]: AHB-AP (IDR: 0x24770011)
T12BC 000:304.664   Iterating through AP map to find AHB-AP to use
T12BC 000:314.963   AP[0]: Core found
T12BC 000:324.339   AP[0]: AHB-AP ROM base: 0xE00FF000
T12BC 000:337.852   CPUID register: 0x410FC241. Implementer code: 0x41 (ARM)
T12BC 000:350.633   Found Cortex-M4 r0p1, Little endian.
T12BC 000:452.379   -- Max. mem block: 0x00005168
T12BC 000:452.700   CPU_ReadMem(4 bytes @ 0xE000EDF0)
T12BC 000:453.209   CPU_WriteMem(4 bytes @ 0xE000EDF0)
T12BC 000:453.785   CPU_ReadMem(4 bytes @ 0xE0002000)
T12BC 000:461.285   FPUnit: 6 code (BP) slots and 2 literal slots
T12BC 000:461.335   CPU_ReadMem(4 bytes @ 0xE000EDFC)
T12BC 000:461.981   CPU_WriteMem(4 bytes @ 0xE000EDFC)
T12BC 000:462.680   CPU_ReadMem(4 bytes @ 0xE0001000)
T12BC 000:463.307   CPU_WriteMem(4 bytes @ 0xE0001000)
T12BC 000:463.930   CPU_ReadMem(4 bytes @ 0xE000ED88)
T12BC 000:464.421   CPU_WriteMem(4 bytes @ 0xE000ED88)
T12BC 000:464.947   CPU_ReadMem(4 bytes @ 0xE000ED88)
T12BC 000:465.432   CPU_WriteMem(4 bytes @ 0xE000ED88)
T12BC 000:475.089   CoreSight components:
T12BC 000:482.967   ROMTbl[0] @ E00FF000
T12BC 000:483.004   CPU_ReadMem(64 bytes @ 0xE00FF000)
T12BC 000:483.943   CPU_ReadMem(32 bytes @ 0xE000EFE0)
T12BC 000:493.129   [0][0]: E000E000 CID B105E00D PID 000BB00C SCS-M7
T12BC 000:493.194   CPU_ReadMem(32 bytes @ 0xE0001FE0)
T12BC 000:502.248   [0][1]: E0001000 CID B105E00D PID 003BB002 DWT
T12BC 000:502.289   CPU_ReadMem(32 bytes @ 0xE0002FE0)
T12BC 000:510.525   [0][2]: E0002000 CID B105E00D PID 002BB003 FPB
T12BC 000:510.579   CPU_ReadMem(32 bytes @ 0xE0000FE0)
T12BC 000:522.231   [0][3]: E0000000 CID B105E00D PID 003BB001 ITM
T12BC 000:522.272   CPU_ReadMem(32 bytes @ 0xE0040FE0)
T12BC 000:530.426   [0][4]: E0040000 CID B105900D PID 000BB9A1 TPIU
T12BC 000:531.038 - 298.576ms returns 0x2BA01477
T12BC 000:531.110 JLINK_GetDLLVersion()
T12BC 000:531.122 - 0.016ms returns 76601
T12BC 000:531.138 JLINK_CORE_GetFound()
T12BC 000:531.147 - 0.014ms returns 0xE0000FF
T12BC 000:531.164 JLINK_GetDebugInfo(0x100 = JLINKARM_ROM_TABLE_ADDR_INDEX)
T12BC 000:531.190   Value=0xE00FF000
T12BC 000:531.210 - 0.051ms returns 0
T12BC 000:538.879 JLINK_ReadMem(0xE00FF000, 0x20 Bytes, ...)
T12BC 000:538.936   CPU_ReadMem(32 bytes @ 0xE00FF000)
T12BC 000:539.691   Data:  03 F0 F0 FF 03 20 F0 FF 03 30 F0 FF 03 10 F0 FF ...
T12BC 000:539.710 - 0.834ms returns 0
T12BC 000:539.723 JLINK_ReadMem(0xE000EFF0, 0x10 Bytes, ...)
T12BC 000:539.737   CPU_ReadMem(16 bytes @ 0xE000EFF0)
T12BC 000:540.341   Data:  0D 00 00 00 E0 00 00 00 05 00 00 00 B1 00 00 00
T12BC 000:540.359 - 0.640ms returns 0
T12BC 000:540.373 JLINK_ReadMem(0xE000EFD0, 0x20 Bytes, ...)
T12BC 000:540.386   CPU_ReadMem(32 bytes @ 0xE000EFD0)
T12BC 000:541.096   Data:  04 00 00 00 00 00 00 00 00 00 00 00 00 00 00 00 ...
T12BC 000:541.114 - 0.744ms returns 0
T12BC 000:541.128 JLINK_ReadMem(0xE0001FF0, 0x10 Bytes, ...)
T12BC 000:541.142   CPU_ReadMem(16 bytes @ 0xE0001FF0)
T12BC 000:541.756   Data:  0D 00 00 00 E0 00 00 00 05 00 00 00 B1 00 00 00
T12BC 000:541.774 - 0.650ms returns 0
T12BC 000:541.787 JLINK_ReadMem(0xE0001FD0, 0x20 Bytes, ...)
T12BC 000:541.800   CPU_ReadMem(32 bytes @ 0xE0001FD0)
T12BC 000:542.559   Data:  04 00 00 00 00 00 00 00 00 00 00 00 00 00 00 00 ...
T12BC 000:542.613 - 0.831ms returns 0
T12BC 000:542.635 JLINK_ReadMem(0xE0002FF0, 0x10 Bytes, ...)
T12BC 000:542.663   CPU_ReadMem(16 bytes @ 0xE0002FF0)
T12BC 000:543.338   Data:  0D 00 00 00 E0 00 00 00 05 00 00 00 B1 00 00 00
T12BC 000:543.379 - 0.751ms returns 0
T12BC 000:543.404 JLINK_ReadMem(0xE0002FD0, 0x20 Bytes, ...)
T12BC 000:543.437   CPU_ReadMem(32 bytes @ 0xE0002FD0)
T12BC 000:544.216   Data:  04 00 00 00 00 00 00 00 00 00 00 00 00 00 00 00 ...
T12BC 000:544.302 - 0.909ms returns 0
T12BC 000:544.359 JLINK_ReadMem(0xE0000FF0, 0x10 Bytes, ...)
T12BC 000:544.393   CPU_ReadMem(16 bytes @ 0xE0000FF0)
T12BC 000:545.098   Data:  0D 00 00 00 E0 00 00 00 05 00 00 00 B1 00 00 00
T12BC 000:545.119 - 0.763ms returns 0
T12BC 000:545.134 JLINK_ReadMem(0xE0000FD0, 0x20 Bytes, ...)
T12BC 000:545.150   CPU_ReadMem(32 bytes @ 0xE0000FD0)
T12BC 000:545.858   Data:  04 00 00 00 00 00 00 00 00 00 00 00 00 00 00 00 ...
T12BC 000:545.878 - 0.749ms returns 0
T12BC 000:545.893 JLINK_ReadMem(0xE0040FF0, 0x10 Bytes, ...)
T12BC 000:545.909   CPU_ReadMem(16 bytes @ 0xE0040FF0)
T12BC 000:546.506   Data:  0D 00 00 00 90 00 00 00 05 00 00 00 B1 00 00 00
T12BC 000:546.524 - 0.635ms returns 0
T12BC 000:546.539 JLINK_ReadMem(0xE0040FD0, 0x20 Bytes, ...)
T12BC 000:546.554   CPU_ReadMem(32 bytes @ 0xE0040FD0)
T12BC 000:547.340   Data:  04 00 00 00 00 00 00 00 00 00 00 00 00 00 00 00 ...
T12BC 000:547.361 - 0.828ms returns 0
T12BC 000:547.379 JLINK_ReadMemU32(0xE000EF40, 0x1 Items)
T12BC 000:547.398   CPU_ReadMem(4 bytes @ 0xE000EF40)
T12BC 000:548.031   Data:  21 00 11 10
T12BC 000:548.049 - 0.673ms returns 1 (0x1)
T12BC 000:548.062 JLINK_ReadMemU32(0xE000EF44, 0x1 Items)
T12BC 000:548.075   CPU_ReadMem(4 bytes @ 0xE000EF44)
T12BC 000:548.648   Data:  11 00 00 11
T12BC 000:548.665 - 0.607ms returns 1 (0x1)
T12BC 000:548.678 JLINK_ReadMemU32(0xE000ED00, 0x1 Items)
T12BC 000:548.691   CPU_ReadMem(4 bytes @ 0xE000ED00)
T12BC 000:549.223   Data:  41 C2 0F 41
T12BC 000:549.247   Debug reg: CPUID
T12BC 000:549.258 - 0.584ms returns 1 (0x1)
T12BC 000:549.272 JLINK_HasError()
T12BC 000:549.283 JLINK_SetResetType(JLINKARM_CM3_RESET_TYPE_NORMAL)
T12BC 000:549.291 - 0.011ms returns JLINKARM_CM3_RESET_TYPE_NORMAL
T12BC 000:549.301 JLINK_Reset()
T12BC 000:549.332   CPU is running
T12BC 000:549.345   CPU_WriteMem(4 bytes @ 0xE000EDF0)
T12BC 000:549.918   CPU is running
T12BC 000:549.937   CPU_WriteMem(4 bytes @ 0xE000EDFC)
T12BC 000:561.055   Reset: Halt core after reset via DEMCR.VC_CORERESET.
T12BC 000:569.423   Reset: Reset device via AIRCR.SYSRESETREQ.
T12BC 000:569.462   CPU is running
T12BC 000:569.483   CPU_WriteMem(4 bytes @ 0xE000ED0C)
T12BC 000:622.485   CPU_ReadMem(4 bytes @ 0xE000EDF0)
T12BC 000:623.069   CPU_ReadMem(4 bytes @ 0xE000EDF0)
T12BC 000:623.508   CPU is running
T12BC 000:623.536   CPU_WriteMem(4 bytes @ 0xE000EDF0)
T12BC 000:623.991   CPU is running
T12BC 000:624.010   CPU_WriteMem(4 bytes @ 0xE000EDFC)
T12BC 000:630.511   CPU_ReadMem(4 bytes @ 0xE000EDF0)
T12BC 000:634.651   CPU_WriteMem(4 bytes @ 0xE0002000)
T12BC 000:635.171   CPU_ReadMem(4 bytes @ 0xE000EDFC)
T12BC 000:635.678   CPU_ReadMem(4 bytes @ 0xE0001000)
T12BC 000:636.162 - 86.876ms
T12BC 000:636.203 JLINK_Halt()
T12BC 000:636.215 - 0.016ms returns 0x00
T12BC 000:636.230 JLINK_IsHalted()
T12BC 000:636.241 - 0.015ms returns TRUE
T12BC 000:636.256 JLINK_ReadMemU32(0xE000EDF0, 0x1 Items)
T12BC 000:636.276   CPU_ReadMem(4 bytes @ 0xE000EDF0)
T12BC 000:636.902   Data:  03 00 03 00
T12BC 000:636.920   Debug reg: DHCSR
T12BC 000:636.931 - 0.678ms returns 1 (0x1)
T12BC 000:636.954 JLINK_WriteU32_64(0xE000EDF0, 0xA05F0003)
T12BC 000:636.963   Debug reg: DHCSR
T12BC 000:637.467   CPU_WriteMem(4 bytes @ 0xE000EDF0)
T12BC 000:637.995 - 1.050ms returns 0 (0x00000000)
T12BC 000:638.018 JLINK_WriteU32_64(0xE000EDFC, 0x01000000)
T12BC 000:638.027   Debug reg: DEMCR
T12BC 000:638.049   CPU_WriteMem(4 bytes @ 0xE000EDFC)
T12BC 000:638.617 - 0.609ms returns 0 (0x00000000)
T12BC 000:674.103 JLINK_GetHWStatus(...)
T12BC 000:674.573 - 0.489ms returns 0
T12BC 000:707.189 JLINK_GetNumBPUnits(Type = 0xFFFFFF00)
T12BC 000:707.215 - 0.030ms returns 0x06
T12BC 000:707.226 JLINK_GetNumBPUnits(Type = 0xF0)
T12BC 000:707.234 - 0.013ms returns 0x2000
T12BC 000:707.245 JLINK_GetNumWPUnits()
T12BC 000:707.253 - 0.011ms returns 4
T12BC 000:736.922 JLINK_GetSpeed()
T12BC 000:736.983 - 0.067ms returns 2667
T12BC 000:758.625 JLINK_ReadMemU32(0xE000E004, 0x1 Items)
T12BC 000:758.675   CPU_ReadMem(4 bytes @ 0xE000E004)
T12BC 000:759.303   Data:  01 00 00 00
T12BC 000:759.331 - 0.710ms returns 1 (0x1)
T12BC 000:759.347 JLINK_ReadMemU32(0xE000E004, 0x1 Items)
T12BC 000:759.370   CPU_ReadMem(4 bytes @ 0xE000E004)
T12BC 000:760.051   Data:  01 00 00 00
T12BC 000:760.116 - 0.783ms returns 1 (0x1)
T12BC 000:760.168 JLINK_WriteMem(0xE0001000, 0x1C Bytes, ...)
T12BC 000:760.177   Data:  01 00 00 00 00 00 00 00 00 00 00 00 00 00 00 00 ...
T12BC 000:760.199   CPU_WriteMem(28 bytes @ 0xE0001000)
T12BC 000:760.999 - 0.844ms returns 0x1C
T12BC 000:761.034 JLINK_ReadMem(0xE0001000, 0x1C Bytes, ...)
T12BC 000:761.067   CPU_ReadMem(28 bytes @ 0xE0001000)
T12BC 000:761.954   Data:  01 00 00 40 00 00 00 00 00 00 00 00 00 00 00 00 ...
T12BC 000:761.981 - 0.951ms returns 0
T12BC 000:762.001 JLINK_Halt()
T12BC 000:762.011 - 0.013ms returns 0x00
T12BC 000:762.021 JLINK_IsHalted()
T12BC 000:762.031 - 0.013ms returns TRUE
T12BC 000:770.250 JLINK_WriteMem(0x30000000, 0x1CDC Bytes, ...)
T12BC 000:770.269   Data:  00 BE 0A E0 0D 78 2D 06 68 40 08 24 40 00 00 D3 ...
T12BC 000:770.585   CPU_WriteMem(7388 bytes @ 0x30000000)
T12BC 000:809.782 - 39.575ms returns 0x1CDC
T12BC 000:809.966 JLINK_HasError()
T12BC 000:809.988 JLINK_WriteReg(R0, 0x00200000)
T12BC 000:810.015 - 0.032ms returns 0
T12BC 000:810.027 JLINK_WriteReg(R1, 0x00B71B00)
T12BC 000:810.036 - 0.012ms returns 0
T12BC 000:810.046 JLINK_WriteReg(R2, 0x00000001)
T12BC 000:810.055 - 0.012ms returns 0
T12BC 000:810.065 JLINK_WriteReg(R3, 0x00000000)
T12BC 000:810.081 - 0.023ms returns 0
T12BC 000:810.095 JLINK_WriteReg(R4, 0x00000000)
T12BC 000:810.103 - 0.012ms returns 0
T12BC 000:810.113 JLINK_WriteReg(R5, 0x00000000)
T12BC 000:810.121 - 0.012ms returns 0
T12BC 000:810.131 JLINK_WriteReg(R6, 0x00000000)
T12BC 000:810.139 - 0.012ms returns 0
T12BC 000:810.149 JLINK_WriteReg(R7, 0x00000000)
T12BC 000:810.157 - 0.011ms returns 0
T12BC 000:810.167 JLINK_WriteReg(R8, 0x00000000)
T12BC 000:810.205 - 0.041ms returns 0
T12BC 000:810.215 JLINK_WriteReg(R9, 0x30001BF0)
T12BC 000:810.224 - 0.012ms returns 0
T12BC 000:810.234 JLINK_WriteReg(R10, 0x00000000)
T12BC 000:810.243 - 0.012ms returns 0
T12BC 000:810.253 JLINK_WriteReg(R11, 0x00000000)
T12BC 000:810.261 - 0.011ms returns 0
T12BC 000:810.271 JLINK_WriteReg(R12, 0x00000000)
T12BC 000:810.279 - 0.012ms returns 0
T12BC 000:810.289 JLINK_WriteReg(R13 (SP), 0x3000F000)
T12BC 000:810.299 - 0.013ms returns 0
T12BC 000:810.309 JLINK_WriteReg(R14, 0x30000001)
T12BC 000:810.329 - 0.029ms returns 0
T12BC 000:810.348 JLINK_WriteReg(R15 (PC), 0x30000038)
T12BC 000:810.360 - 0.016ms returns 0
T12BC 000:810.371 JLINK_WriteReg(XPSR, 0x01000000)
T12BC 000:810.379 - 0.012ms returns 0
T12BC 000:810.389 JLINK_WriteReg(MSP, 0x3000F000)
T12BC 000:810.398 - 0.012ms returns 0
T12BC 000:810.408 JLINK_WriteReg(PSP, 0x3000F000)
T12BC 000:810.416 - 0.011ms returns 0
T12BC 000:810.425 JLINK_WriteReg(CFBP, 0x00000000)
T12BC 000:810.433 - 0.011ms returns 0
T12BC 000:810.444 JLINK_SetBPEx(Addr = 0x30000000, Type = 0xFFFFFFF2)
T12BC 000:810.462   CPU_ReadMem(4 bytes @ 0x30000000)
T12BC 000:810.935   CPU_WriteMem(4 bytes @ 0x30000000)
T12BC 000:811.449   CPU_ReadMem(4 bytes @ 0x30000000)
T12BC 000:811.979   CPU_WriteMem(4 bytes @ 0x30000000)
T12BC 000:812.546   CPU_ReadMem(2 bytes @ 0x30000000)
T12BC 000:813.118 - 2.686ms returns 0x00000001
T12BC 000:813.144 JLINK_Go()
T12BC 000:813.162   CPU_WriteMem(2 bytes @ 0x30000000)
T12BC 000:813.749   CPU_ReadMem(4 bytes @ 0xE0001000)
T12BC 000:814.295   CPU_WriteMem(4 bytes @ 0xE0002008)
T12BC 000:814.322   CPU_WriteMem(4 bytes @ 0xE000200C)
T12BC 000:814.337   CPU_WriteMem(4 bytes @ 0xE0002010)
T12BC 000:814.352   CPU_WriteMem(4 bytes @ 0xE0002014)
T12BC 000:814.366   CPU_WriteMem(4 bytes @ 0xE0002018)
T12BC 000:814.388   CPU_WriteMem(4 bytes @ 0xE000201C)
T12BC 000:816.119   CPU_WriteMem(4 bytes @ 0xE0001004)
T12BC 000:819.796 - 6.682ms
T12BC 000:819.839 JLINK_IsHalted()
T12BC 000:823.065   CPU_ReadMem(2 bytes @ 0x30000000)
T12BC 000:823.686 - 3.859ms returns TRUE
T12BC 000:823.712 JLINK_ReadReg(R15 (PC))
T12BC 000:823.723 - 0.014ms returns 0x30000000
T12BC 000:823.733 JLINK_ClrBPEx(BPHandle = 0x00000001)
T12BC 000:823.741 - 0.011ms returns 0x00
T12BC 000:823.750 JLINK_ReadReg(R0)
T12BC 000:823.757 - 0.010ms returns 0x00000000
T12BC 000:824.310 JLINK_HasError()
T12BC 000:824.336 JLINK_WriteReg(R0, 0x01002000)
T12BC 000:824.349 - 0.016ms returns 0
T12BC 000:824.359 JLINK_WriteReg(R1, 0x00001000)
T12BC 000:824.366 - 0.010ms returns 0
T12BC 000:824.375 JLINK_WriteReg(R2, 0x000000FF)
T12BC 000:824.382 - 0.010ms returns 0
T12BC 000:824.391 JLINK_WriteReg(R3, 0x00000000)
T12BC 000:824.398 - 0.010ms returns 0
T12BC 000:824.406 JLINK_WriteReg(R4, 0x00000000)
T12BC 000:824.413 - 0.010ms returns 0
T12BC 000:824.422 JLINK_WriteReg(R5, 0x00000000)
T12BC 000:824.429 - 0.010ms returns 0
T12BC 000:824.437 JLINK_WriteReg(R6, 0x00000000)
T12BC 000:824.444 - 0.010ms returns 0
T12BC 000:824.453 JLINK_WriteReg(R7, 0x00000000)
T12BC 000:824.460 - 0.011ms returns 0
T12BC 000:824.474 JLINK_WriteReg(R8, 0x00000000)
T12BC 000:824.485 - 0.015ms returns 0
T12BC 000:824.497 JLINK_WriteReg(R9, 0x30001BF0)
T12BC 000:824.504 - 0.010ms returns 0
T12BC 000:824.512 JLINK_WriteReg(R10, 0x00000000)
T12BC 000:824.519 - 0.010ms returns 0
T12BC 000:824.529 JLINK_WriteReg(R11, 0x00000000)
T12BC 000:824.556 - 0.030ms returns 0
T12BC 000:824.566 JLINK_WriteReg(R12, 0x00000000)
T12BC 000:824.574 - 0.012ms returns 0
T12BC 000:824.583 JLINK_WriteReg(R13 (SP), 0x3000F000)
T12BC 000:824.687 - 0.114ms returns 0
T12BC 000:824.704 JLINK_WriteReg(R14, 0x30000001)
T12BC 000:824.711 - 0.011ms returns 0
T12BC 000:824.721 JLINK_WriteReg(R15 (PC), 0x30000020)
T12BC 000:824.728 - 0.010ms returns 0
T12BC 000:824.736 JLINK_WriteReg(XPSR, 0x01000000)
T12BC 000:824.743 - 0.010ms returns 0
T12BC 000:824.752 JLINK_WriteReg(MSP, 0x3000F000)
T12BC 000:824.759 - 0.010ms returns 0
T12BC 000:824.768 JLINK_WriteReg(PSP, 0x3000F000)
T12BC 000:824.775 - 0.010ms returns 0
T12BC 000:824.783 JLINK_WriteReg(CFBP, 0x00000000)
T12BC 000:824.790 - 0.010ms returns 0
T12BC 000:824.799 JLINK_SetBPEx(Addr = 0x30000000, Type = 0xFFFFFFF2)
T12BC 000:824.827 - 0.031ms returns 0x00000002
T12BC 000:824.837 JLINK_Go()
T12BC 000:824.869   CPU_ReadMem(4 bytes @ 0xE0001000)
T12BC 000:828.751 - 3.944ms
T12BC 000:828.813 JLINK_IsHalted()
T12BC 000:832.007   CPU_ReadMem(2 bytes @ 0x30000000)
T12BC 000:832.559 - 3.760ms returns TRUE
T12BC 000:832.587 JLINK_ReadReg(R15 (PC))
T12BC 000:832.609 - 0.028ms returns 0x30000000
T12BC 000:832.631 JLINK_ClrBPEx(BPHandle = 0x00000002)
T12BC 000:832.652 - 0.024ms returns 0x00
T12BC 000:832.663 JLINK_ReadReg(R0)
T12BC 000:832.671 - 0.011ms returns 0x00000001
T12BC 000:832.682 JLINK_HasError()
T12BC 000:832.693 JLINK_WriteReg(R0, 0x01002000)
T12BC 000:832.702 - 0.012ms returns 0
T12BC 000:832.712 JLINK_WriteReg(R1, 0x00001000)
T12BC 000:832.720 - 0.012ms returns 0
T12BC 000:832.730 JLINK_WriteReg(R2, 0x000000FF)
T12BC 000:832.738 - 0.011ms returns 0
T12BC 000:832.747 JLINK_WriteReg(R3, 0x00000000)
T12BC 000:832.755 - 0.012ms returns 0
T12BC 000:832.765 JLINK_WriteReg(R4, 0x00000000)
T12BC 000:832.773 - 0.011ms returns 0
T12BC 000:832.783 JLINK_WriteReg(R5, 0x00000000)
T12BC 000:832.791 - 0.011ms returns 0
T12BC 000:832.801 JLINK_WriteReg(R6, 0x00000000)
T12BC 000:832.809 - 0.011ms returns 0
T12BC 000:832.818 JLINK_WriteReg(R7, 0x00000000)
T12BC 000:832.826 - 0.011ms returns 0
T12BC 000:832.836 JLINK_WriteReg(R8, 0x00000000)
T12BC 000:832.844 - 0.011ms returns 0
T12BC 000:832.854 JLINK_WriteReg(R9, 0x30001BF0)
T12BC 000:832.863 - 0.012ms returns 0
T12BC 000:832.872 JLINK_WriteReg(R10, 0x00000000)
T12BC 000:832.880 - 0.011ms returns 0
T12BC 000:832.890 JLINK_WriteReg(R11, 0x00000000)
T12BC 000:832.898 - 0.011ms returns 0
T12BC 000:832.907 JLINK_WriteReg(R12, 0x00000000)
T12BC 000:832.916 - 0.012ms returns 0
T12BC 000:832.925 JLINK_WriteReg(R13 (SP), 0x3000F000)
T12BC 000:832.934 - 0.012ms returns 0
T12BC 000:832.944 JLINK_WriteReg(R14, 0x30000001)
T12BC 000:832.952 - 0.011ms returns 0
T12BC 000:832.961 JLINK_WriteReg(R15 (PC), 0x30000078)
T12BC 000:832.970 - 0.012ms returns 0
T12BC 000:832.980 JLINK_WriteReg(XPSR, 0x01000000)
T12BC 000:832.988 - 0.011ms returns 0
T12BC 000:832.997 JLINK_WriteReg(MSP, 0x3000F000)
T12BC 000:833.005 - 0.011ms returns 0
T12BC 000:833.015 JLINK_WriteReg(PSP, 0x3000F000)
T12BC 000:833.023 - 0.011ms returns 0
T12BC 000:833.033 JLINK_WriteReg(CFBP, 0x00000000)
T12BC 000:833.040 - 0.011ms returns 0
T12BC 000:833.050 JLINK_SetBPEx(Addr = 0x30000000, Type = 0xFFFFFFF2)
T12BC 000:833.059 - 0.013ms returns 0x00000003
T12BC 000:833.069 JLINK_Go()
T12BC 000:833.088   CPU_ReadMem(4 bytes @ 0xE0001000)
T12BC 000:837.055 - 3.998ms
T12BC 000:837.086 JLINK_IsHalted()
T12BC 000:837.650 - 0.577ms returns FALSE
T12BC 000:837.679 JLINK_HasError()
T12BC 000:934.684 JLINK_IsHalted()
T12BC 000:938.005   CPU_ReadMem(2 bytes @ 0x30000000)
T12BC 000:938.568 - 3.896ms returns TRUE
T12BC 000:938.592 JLINK_ReadReg(R15 (PC))
T12BC 000:938.604 - 0.016ms returns 0x30000000
T12BC 000:938.615 JLINK_ClrBPEx(BPHandle = 0x00000003)
T12BC 000:938.623 - 0.012ms returns 0x00
T12BC 000:938.633 JLINK_ReadReg(R0)
T12BC 000:938.641 - 0.011ms returns 0x00000000
T12BC 000:939.601 JLINK_HasError()
T12BC 000:939.624 JLINK_WriteReg(R0, 0x01003000)
T12BC 000:939.635 - 0.015ms returns 0
T12BC 000:939.646 JLINK_WriteReg(R1, 0x00001000)
T12BC 000:939.654 - 0.011ms returns 0
T12BC 000:939.663 JLINK_WriteReg(R2, 0x000000FF)
T12BC 000:939.676 - 0.019ms returns 0
T12BC 000:939.689 JLINK_WriteReg(R3, 0x00000000)
T12BC 000:939.697 - 0.011ms returns 0
T12BC 000:939.706 JLINK_WriteReg(R4, 0x00000000)
T12BC 000:939.714 - 0.011ms returns 0
T12BC 000:939.724 JLINK_WriteReg(R5, 0x00000000)
T12BC 000:939.731 - 0.011ms returns 0
T12BC 000:939.741 JLINK_WriteReg(R6, 0x00000000)
T12BC 000:939.748 - 0.011ms returns 0
T12BC 000:939.758 JLINK_WriteReg(R7, 0x00000000)
T12BC 000:939.766 - 0.012ms returns 0
T12BC 000:939.775 JLINK_WriteReg(R8, 0x00000000)
T12BC 000:939.783 - 0.011ms returns 0
T12BC 000:939.792 JLINK_WriteReg(R9, 0x30001BF0)
T12BC 000:939.800 - 0.011ms returns 0
T12BC 000:939.809 JLINK_WriteReg(R10, 0x00000000)
T12BC 000:939.817 - 0.011ms returns 0
T12BC 000:939.827 JLINK_WriteReg(R11, 0x00000000)
T12BC 000:939.834 - 0.012ms returns 0
T12BC 000:939.844 JLINK_WriteReg(R12, 0x00000000)
T12BC 000:939.852 - 0.011ms returns 0
T12BC 000:939.861 JLINK_WriteReg(R13 (SP), 0x3000F000)
T12BC 000:939.870 - 0.012ms returns 0
T12BC 000:939.879 JLINK_WriteReg(R14, 0x30000001)
T12BC 000:939.887 - 0.011ms returns 0
T12BC 000:939.896 JLINK_WriteReg(R15 (PC), 0x30000020)
T12BC 000:939.904 - 0.012ms returns 0
T12BC 000:939.915 JLINK_WriteReg(XPSR, 0x01000000)
T12BC 000:939.923 - 0.011ms returns 0
T12BC 000:939.932 JLINK_WriteReg(MSP, 0x3000F000)
T12BC 000:939.940 - 0.011ms returns 0
T12BC 000:939.949 JLINK_WriteReg(PSP, 0x3000F000)
T12BC 000:939.958 - 0.012ms returns 0
T12BC 000:939.967 JLINK_WriteReg(CFBP, 0x00000000)
T12BC 000:939.975 - 0.011ms returns 0
T12BC 000:939.984 JLINK_SetBPEx(Addr = 0x30000000, Type = 0xFFFFFFF2)
T12BC 000:939.993 - 0.012ms returns 0x00000004
T12BC 000:940.003 JLINK_Go()
T12BC 000:940.019   CPU_ReadMem(4 bytes @ 0xE0001000)
T12BC 000:943.641 - 3.704ms
T12BC 000:943.719 JLINK_IsHalted()
T12BC 000:947.075   CPU_ReadMem(2 bytes @ 0x30000000)
T12BC 000:947.655 - 3.945ms returns TRUE
T12BC 000:947.675 JLINK_ReadReg(R15 (PC))
T12BC 000:947.686 - 0.014ms returns 0x30000000
T12BC 000:947.696 JLINK_ClrBPEx(BPHandle = 0x00000004)
T12BC 000:947.703 - 0.011ms returns 0x00
T12BC 000:947.713 JLINK_ReadReg(R0)
T12BC 000:947.720 - 0.011ms returns 0x00000001
T12BC 000:947.730 JLINK_HasError()
T12BC 000:947.740 JLINK_WriteReg(R0, 0x01003000)
T12BC 000:947.748 - 0.011ms returns 0
T12BC 000:947.757 JLINK_WriteReg(R1, 0x00001000)
T12BC 000:947.764 - 0.010ms returns 0
T12BC 000:947.773 JLINK_WriteReg(R2, 0x000000FF)
T12BC 000:947.780 - 0.010ms returns 0
T12BC 000:947.789 JLINK_WriteReg(R3, 0x00000000)
T12BC 000:947.796 - 0.010ms returns 0
T12BC 000:947.805 JLINK_WriteReg(R4, 0x00000000)
T12BC 000:947.812 - 0.010ms returns 0
T12BC 000:947.821 JLINK_WriteReg(R5, 0x00000000)
T12BC 000:947.828 - 0.010ms returns 0
T12BC 000:947.837 JLINK_WriteReg(R6, 0x00000000)
T12BC 000:947.844 - 0.010ms returns 0
T12BC 000:947.853 JLINK_WriteReg(R7, 0x00000000)
T12BC 000:947.860 - 0.010ms returns 0
T12BC 000:947.870 JLINK_WriteReg(R8, 0x00000000)
T12BC 000:947.878 - 0.011ms returns 0
T12BC 000:947.887 JLINK_WriteReg(R9, 0x30001BF0)
T12BC 000:947.894 - 0.010ms returns 0
T12BC 000:947.903 JLINK_WriteReg(R10, 0x00000000)
T12BC 000:947.910 - 0.010ms returns 0
T12BC 000:947.919 JLINK_WriteReg(R11, 0x00000000)
T12BC 000:947.926 - 0.010ms returns 0
T12BC 000:947.935 JLINK_WriteReg(R12, 0x00000000)
T12BC 000:947.942 - 0.010ms returns 0
T12BC 000:947.951 JLINK_WriteReg(R13 (SP), 0x3000F000)
T12BC 000:947.958 - 0.010ms returns 0
T12BC 000:947.967 JLINK_WriteReg(R14, 0x30000001)
T12BC 000:947.974 - 0.010ms returns 0
T12BC 000:947.983 JLINK_WriteReg(R15 (PC), 0x30000078)
T12BC 000:947.990 - 0.010ms returns 0
T12BC 000:947.999 JLINK_WriteReg(XPSR, 0x01000000)
T12BC 000:948.006 - 0.010ms returns 0
T12BC 000:948.015 JLINK_WriteReg(MSP, 0x3000F000)
T12BC 000:948.022 - 0.010ms returns 0
T12BC 000:948.031 JLINK_WriteReg(PSP, 0x3000F000)
T12BC 000:948.038 - 0.010ms returns 0
T12BC 000:948.046 JLINK_WriteReg(CFBP, 0x00000000)
T12BC 000:948.054 - 0.010ms returns 0
T12BC 000:948.063 JLINK_SetBPEx(Addr = 0x30000000, Type = 0xFFFFFFF2)
T12BC 000:948.077 - 0.039ms returns 0x00000005
T12BC 000:948.108 JLINK_Go()
T12BC 000:948.124   CPU_ReadMem(4 bytes @ 0xE0001000)
T12BC 000:951.727 - 3.660ms
T12BC 000:951.780 JLINK_IsHalted()
T12BC 000:952.289 - 0.522ms returns FALSE
T12BC 000:952.311 JLINK_HasError()
T12BC 001:017.561 JLINK_IsHalted()
T12BC 001:020.928   CPU_ReadMem(2 bytes @ 0x30000000)
T12BC 001:021.513 - 3.978ms returns TRUE
T12BC 001:021.553 JLINK_ReadReg(R15 (PC))
T12BC 001:021.565 - 0.015ms returns 0x30000000
T12BC 001:021.575 JLINK_ClrBPEx(BPHandle = 0x00000005)
T12BC 001:021.583 - 0.011ms returns 0x00
T12BC 001:021.625 JLINK_ReadReg(R0)
T12BC 001:021.639 - 0.018ms returns 0x00000000
T12BC 001:025.846 JLINK_HasError()
T12BC 001:025.875 JLINK_WriteReg(R0, 0x01004000)
T12BC 001:025.889 - 0.022ms returns 0
T12BC 001:025.908 JLINK_WriteReg(R1, 0x00001000)
T12BC 001:025.921 - 0.019ms returns 0
T12BC 001:025.937 JLINK_WriteReg(R2, 0x000000FF)
T12BC 001:026.035 - 0.109ms returns 0
T12BC 001:026.060 JLINK_WriteReg(R3, 0x00000000)
T12BC 001:026.074 - 0.023ms returns 0
T12BC 001:026.092 JLINK_WriteReg(R4, 0x00000000)
T12BC 001:026.103 - 0.016ms returns 0
T12BC 001:026.115 JLINK_WriteReg(R5, 0x00000000)
T12BC 001:026.126 - 0.015ms returns 0
T12BC 001:026.138 JLINK_WriteReg(R6, 0x00000000)
T12BC 001:026.148 - 0.016ms returns 0
T12BC 001:026.167 JLINK_WriteReg(R7, 0x00000000)
T12BC 001:026.181 - 0.021ms returns 0
T12BC 001:026.198 JLINK_WriteReg(R8, 0x00000000)
T12BC 001:026.230 - 0.039ms returns 0
T12BC 001:026.249 JLINK_WriteReg(R9, 0x30001BF0)
T12BC 001:026.265 - 0.022ms returns 0
T12BC 001:026.284 JLINK_WriteReg(R10, 0x00000000)
T12BC 001:026.300 - 0.022ms returns 0
T12BC 001:026.316 JLINK_WriteReg(R11, 0x00000000)
T12BC 001:026.332 - 0.023ms returns 0
T12BC 001:026.353 JLINK_WriteReg(R12, 0x00000000)
T12BC 001:026.365 - 0.017ms returns 0
T12BC 001:026.378 JLINK_WriteReg(R13 (SP), 0x3000F000)
T12BC 001:026.395 - 0.023ms returns 0
T12BC 001:026.414 JLINK_WriteReg(R14, 0x30000001)
T12BC 001:026.430 - 0.022ms returns 0
T12BC 001:026.448 JLINK_WriteReg(R15 (PC), 0x30000020)
T12BC 001:026.491 - 0.050ms returns 0
T12BC 001:026.507 JLINK_WriteReg(XPSR, 0x01000000)
T12BC 001:026.518 - 0.015ms returns 0
T12BC 001:026.530 JLINK_WriteReg(MSP, 0x3000F000)
T12BC 001:026.543 - 0.031ms returns 0
T12BC 001:026.570 JLINK_WriteReg(PSP, 0x3000F000)
T12BC 001:026.581 - 0.016ms returns 0
T12BC 001:026.595 JLINK_WriteReg(CFBP, 0x00000000)
T12BC 001:026.607 - 0.017ms returns 0
T12BC 001:026.621 JLINK_SetBPEx(Addr = 0x30000000, Type = 0xFFFFFFF2)
T12BC 001:026.638 - 0.022ms returns 0x00000006
T12BC 001:026.652 JLINK_Go()
T12BC 001:026.682   CPU_ReadMem(4 bytes @ 0xE0001000)
T12BC 001:030.881 - 4.248ms
T12BC 001:030.912 JLINK_IsHalted()
T12BC 001:034.186   CPU_ReadMem(2 bytes @ 0x30000000)
T12BC 001:034.775 - 3.875ms returns TRUE
T12BC 001:034.799 JLINK_ReadReg(R15 (PC))
T12BC 001:034.811 - 0.016ms returns 0x30000000
T12BC 001:034.822 JLINK_ClrBPEx(BPHandle = 0x00000006)
T12BC 001:034.830 - 0.012ms returns 0x00
T12BC 001:034.840 JLINK_ReadReg(R0)
T12BC 001:034.848 - 0.011ms returns 0x00000001
T12BC 001:034.859 JLINK_HasError()
T12BC 001:034.870 JLINK_WriteReg(R0, 0x01004000)
T12BC 001:034.878 - 0.012ms returns 0
T12BC 001:034.888 JLINK_WriteReg(R1, 0x00001000)
T12BC 001:034.896 - 0.011ms returns 0
T12BC 001:034.906 JLINK_WriteReg(R2, 0x000000FF)
T12BC 001:034.914 - 0.011ms returns 0
T12BC 001:034.923 JLINK_WriteReg(R3, 0x00000000)
T12BC 001:034.931 - 0.011ms returns 0
T12BC 001:034.941 JLINK_WriteReg(R4, 0x00000000)
T12BC 001:034.949 - 0.011ms returns 0
T12BC 001:034.958 JLINK_WriteReg(R5, 0x00000000)
T12BC 001:034.966 - 0.011ms returns 0
T12BC 001:034.976 JLINK_WriteReg(R6, 0x00000000)
T12BC 001:034.983 - 0.011ms returns 0
T12BC 001:034.993 JLINK_WriteReg(R7, 0x00000000)
T12BC 001:035.001 - 0.011ms returns 0
T12BC 001:035.011 JLINK_WriteReg(R8, 0x00000000)
T12BC 001:035.018 - 0.011ms returns 0
T12BC 001:035.028 JLINK_WriteReg(R9, 0x30001BF0)
T12BC 001:035.036 - 0.015ms returns 0
T12BC 001:035.052 JLINK_WriteReg(R10, 0x00000000)
T12BC 001:035.060 - 0.011ms returns 0
T12BC 001:035.070 JLINK_WriteReg(R11, 0x00000000)
T12BC 001:035.080 - 0.013ms returns 0
T12BC 001:035.090 JLINK_WriteReg(R12, 0x00000000)
T12BC 001:035.101 - 0.017ms returns 0
T12BC 001:035.117 JLINK_WriteReg(R13 (SP), 0x3000F000)
T12BC 001:035.129 - 0.017ms returns 0
T12BC 001:035.143 JLINK_WriteReg(R14, 0x30000001)
T12BC 001:035.154 - 0.016ms returns 0
T12BC 001:035.167 JLINK_WriteReg(R15 (PC), 0x30000078)
T12BC 001:035.178 - 0.016ms returns 0
T12BC 001:035.192 JLINK_WriteReg(XPSR, 0x01000000)
T12BC 001:035.204 - 0.016ms returns 0
T12BC 001:035.215 JLINK_WriteReg(MSP, 0x3000F000)
T12BC 001:035.223 - 0.013ms returns 0
T12BC 001:035.238 JLINK_WriteReg(PSP, 0x3000F000)
T12BC 001:035.254 - 0.025ms returns 0
T12BC 001:035.271 JLINK_WriteReg(CFBP, 0x00000000)
T12BC 001:035.280 - 0.013ms returns 0
T12BC 001:035.290 JLINK_SetBPEx(Addr = 0x30000000, Type = 0xFFFFFFF2)
T12BC 001:035.299 - 0.013ms returns 0x00000007
T12BC 001:035.309 JLINK_Go()
T12BC 001:035.327   CPU_ReadMem(4 bytes @ 0xE0001000)
T12BC 001:038.895 - 3.602ms
T12BC 001:038.923 JLINK_IsHalted()
T12BC 001:039.396 - 0.484ms returns FALSE
T12BC 001:039.417 JLINK_HasError()
T12BC 001:156.892 JLINK_IsHalted()
T12BC 001:160.294   CPU_ReadMem(2 bytes @ 0x30000000)
T12BC 001:160.967 - 4.109ms returns TRUE
T12BC 001:161.022 JLINK_ReadReg(R15 (PC))
T12BC 001:161.051 - 0.035ms returns 0x30000000
T12BC 001:161.068 JLINK_ClrBPEx(BPHandle = 0x00000007)
T12BC 001:161.098 - 0.035ms returns 0x00
T12BC 001:161.114 JLINK_ReadReg(R0)
T12BC 001:161.125 - 0.017ms returns 0x00000000
T12BC 001:162.169 JLINK_HasError()
T12BC 001:162.190 JLINK_WriteReg(R0, 0x01005000)
T12BC 001:162.203 - 0.016ms returns 0
T12BC 001:162.213 JLINK_WriteReg(R1, 0x00001000)
T12BC 001:162.220 - 0.011ms returns 0
T12BC 001:162.230 JLINK_WriteReg(R2, 0x000000FF)
T12BC 001:162.237 - 0.011ms returns 0
T12BC 001:162.246 JLINK_WriteReg(R3, 0x00000000)
T12BC 001:162.254 - 0.010ms returns 0
T12BC 001:162.263 JLINK_WriteReg(R4, 0x00000000)
T12BC 001:162.270 - 0.011ms returns 0
T12BC 001:162.280 JLINK_WriteReg(R5, 0x00000000)
T12BC 001:162.287 - 0.011ms returns 0
T12BC 001:162.296 JLINK_WriteReg(R6, 0x00000000)
T12BC 001:162.304 - 0.011ms returns 0
T12BC 001:162.313 JLINK_WriteReg(R7, 0x00000000)
T12BC 001:162.320 - 0.010ms returns 0
T12BC 001:162.329 JLINK_WriteReg(R8, 0x00000000)
T12BC 001:162.337 - 0.011ms returns 0
T12BC 001:162.346 JLINK_WriteReg(R9, 0x30001BF0)
T12BC 001:162.354 - 0.011ms returns 0
T12BC 001:162.363 JLINK_WriteReg(R10, 0x00000000)
T12BC 001:162.370 - 0.011ms returns 0
T12BC 001:162.379 JLINK_WriteReg(R11, 0x00000000)
T12BC 001:162.387 - 0.011ms returns 0
T12BC 001:162.396 JLINK_WriteReg(R12, 0x00000000)
T12BC 001:162.403 - 0.010ms returns 0
T12BC 001:162.412 JLINK_WriteReg(R13 (SP), 0x3000F000)
T12BC 001:162.420 - 0.011ms returns 0
T12BC 001:162.430 JLINK_WriteReg(R14, 0x30000001)
T12BC 001:162.437 - 0.011ms returns 0
T12BC 001:162.446 JLINK_WriteReg(R15 (PC), 0x30000020)
T12BC 001:162.454 - 0.011ms returns 0
T12BC 001:162.463 JLINK_WriteReg(XPSR, 0x01000000)
T12BC 001:162.471 - 0.011ms returns 0
T12BC 001:162.480 JLINK_WriteReg(MSP, 0x3000F000)
T12BC 001:162.488 - 0.011ms returns 0
T12BC 001:162.497 JLINK_WriteReg(PSP, 0x3000F000)
T12BC 001:162.505 - 0.011ms returns 0
T12BC 001:162.515 JLINK_WriteReg(CFBP, 0x00000000)
T12BC 001:162.522 - 0.011ms returns 0
T12BC 001:162.532 JLINK_SetBPEx(Addr = 0x30000000, Type = 0xFFFFFFF2)
T12BC 001:162.542 - 0.013ms returns 0x00000008
T12BC 001:162.551 JLINK_Go()
T12BC 001:162.575   CPU_ReadMem(4 bytes @ 0xE0001000)
T12BC 001:166.301 - 3.774ms
T12BC 001:166.359 JLINK_IsHalted()
T12BC 001:169.609   CPU_ReadMem(2 bytes @ 0x30000000)
T12BC 001:170.164 - 3.819ms returns TRUE
T12BC 001:170.195 JLINK_ReadReg(R15 (PC))
T12BC 001:170.212 - 0.021ms returns 0x30000000
T12BC 001:170.223 JLINK_ClrBPEx(BPHandle = 0x00000008)
T12BC 001:170.232 - 0.012ms returns 0x00
T12BC 001:170.313 JLINK_ReadReg(R0)
T12BC 001:170.328 - 0.018ms returns 0x00000001
T12BC 001:170.342 JLINK_HasError()
T12BC 001:170.355 JLINK_WriteReg(R0, 0x01005000)
T12BC 001:170.364 - 0.013ms returns 0
T12BC 001:170.375 JLINK_WriteReg(R1, 0x00001000)
T12BC 001:170.383 - 0.011ms returns 0
T12BC 001:170.393 JLINK_WriteReg(R2, 0x000000FF)
T12BC 001:170.400 - 0.011ms returns 0
T12BC 001:170.410 JLINK_WriteReg(R3, 0x00000000)
T12BC 001:170.418 - 0.011ms returns 0
T12BC 001:170.427 JLINK_WriteReg(R4, 0x00000000)
T12BC 001:170.435 - 0.011ms returns 0
T12BC 001:170.445 JLINK_WriteReg(R5, 0x00000000)
T12BC 001:170.453 - 0.011ms returns 0
T12BC 001:170.463 JLINK_WriteReg(R6, 0x00000000)
T12BC 001:170.470 - 0.011ms returns 0
T12BC 001:170.480 JLINK_WriteReg(R7, 0x00000000)
T12BC 001:170.487 - 0.011ms returns 0
T12BC 001:170.603 JLINK_WriteReg(R8, 0x00000000)
T12BC 001:170.621 - 0.022ms returns 0
T12BC 001:170.632 JLINK_WriteReg(R9, 0x30001BF0)
T12BC 001:170.640 - 0.012ms returns 0
T12BC 001:170.649 JLINK_WriteReg(R10, 0x00000000)
T12BC 001:170.657 - 0.011ms returns 0
T12BC 001:170.667 JLINK_WriteReg(R11, 0x00000000)
T12BC 001:170.674 - 0.011ms returns 0
T12BC 001:170.684 JLINK_WriteReg(R12, 0x00000000)
T12BC 001:170.692 - 0.011ms returns 0
T12BC 001:170.701 JLINK_WriteReg(R13 (SP), 0x3000F000)
T12BC 001:170.710 - 0.012ms returns 0
T12BC 001:170.719 JLINK_WriteReg(R14, 0x30000001)
T12BC 001:170.728 - 0.012ms returns 0
T12BC 001:170.737 JLINK_WriteReg(R15 (PC), 0x30000078)
T12BC 001:170.746 - 0.012ms returns 0
T12BC 001:170.755 JLINK_WriteReg(XPSR, 0x01000000)
T12BC 001:170.764 - 0.012ms returns 0
T12BC 001:170.774 JLINK_WriteReg(MSP, 0x3000F000)
T12BC 001:170.783 - 0.015ms returns 0
T12BC 001:170.795 JLINK_WriteReg(PSP, 0x3000F000)
T12BC 001:170.804 - 0.011ms returns 0
T12BC 001:170.813 JLINK_WriteReg(CFBP, 0x00000000)
T12BC 001:170.822 - 0.012ms returns 0
T12BC 001:170.833 JLINK_SetBPEx(Addr = 0x30000000, Type = 0xFFFFFFF2)
T12BC 001:170.844 - 0.014ms returns 0x00000009
T12BC 001:170.856 JLINK_Go()
T12BC 001:170.883   CPU_ReadMem(4 bytes @ 0xE0001000)
T12BC 001:174.567 - 3.725ms
T12BC 001:174.592 JLINK_IsHalted()
T12BC 001:175.084 - 0.503ms returns FALSE
T12BC 001:175.106 JLINK_HasError()
T12BC 001:225.367 JLINK_IsHalted()
T12BC 001:228.782   CPU_ReadMem(2 bytes @ 0x30000000)
T12BC 001:229.359 - 4.007ms returns TRUE
T12BC 001:229.389 JLINK_ReadReg(R15 (PC))
T12BC 001:229.405 - 0.021ms returns 0x30000000
T12BC 001:229.419 JLINK_ClrBPEx(BPHandle = 0x00000009)
T12BC 001:229.430 - 0.016ms returns 0x00
T12BC 001:229.443 JLINK_ReadReg(R0)
T12BC 001:229.454 - 0.016ms returns 0x00000000
T12BC 001:230.335 JLINK_HasError()
T12BC 001:230.362 JLINK_WriteReg(R0, 0x01006000)
T12BC 001:230.378 - 0.021ms returns 0
T12BC 001:230.392 JLINK_WriteReg(R1, 0x00001000)
T12BC 001:230.402 - 0.015ms returns 0
T12BC 001:230.415 JLINK_WriteReg(R2, 0x000000FF)
T12BC 001:230.426 - 0.015ms returns 0
T12BC 001:230.438 JLINK_WriteReg(R3, 0x00000000)
T12BC 001:230.449 - 0.015ms returns 0
T12BC 001:230.462 JLINK_WriteReg(R4, 0x00000000)
T12BC 001:230.472 - 0.015ms returns 0
T12BC 001:230.485 JLINK_WriteReg(R5, 0x00000000)
T12BC 001:230.496 - 0.016ms returns 0
T12BC 001:230.509 JLINK_WriteReg(R6, 0x00000000)
T12BC 001:230.520 - 0.016ms returns 0
T12BC 001:230.532 JLINK_WriteReg(R7, 0x00000000)
T12BC 001:230.542 - 0.015ms returns 0
T12BC 001:230.556 JLINK_WriteReg(R8, 0x00000000)
T12BC 001:230.564 - 0.012ms returns 0
T12BC 001:230.573 JLINK_WriteReg(R9, 0x30001BF0)
T12BC 001:230.581 - 0.011ms returns 0
T12BC 001:230.590 JLINK_WriteReg(R10, 0x00000000)
T12BC 001:230.598 - 0.011ms returns 0
T12BC 001:230.608 JLINK_WriteReg(R11, 0x00000000)
T12BC 001:230.615 - 0.011ms returns 0
T12BC 001:230.625 JLINK_WriteReg(R12, 0x00000000)
T12BC 001:230.632 - 0.011ms returns 0
T12BC 001:230.642 JLINK_WriteReg(R13 (SP), 0x3000F000)
T12BC 001:230.650 - 0.011ms returns 0
T12BC 001:230.659 JLINK_WriteReg(R14, 0x30000001)
T12BC 001:230.667 - 0.011ms returns 0
T12BC 001:230.676 JLINK_WriteReg(R15 (PC), 0x30000020)
T12BC 001:230.700 - 0.032ms returns 0
T12BC 001:230.717 JLINK_WriteReg(XPSR, 0x01000000)
T12BC 001:230.728 - 0.015ms returns 0
T12BC 001:230.742 JLINK_WriteReg(MSP, 0x3000F000)
T12BC 001:230.750 - 0.011ms returns 0
T12BC 001:230.759 JLINK_WriteReg(PSP, 0x3000F000)
T12BC 001:230.767 - 0.011ms returns 0
T12BC 001:230.777 JLINK_WriteReg(CFBP, 0x00000000)
T12BC 001:230.784 - 0.011ms returns 0
T12BC 001:230.794 JLINK_SetBPEx(Addr = 0x30000000, Type = 0xFFFFFFF2)
T12BC 001:230.803 - 0.012ms returns 0x0000000A
T12BC 001:230.813 JLINK_Go()
T12BC 001:230.829   CPU_ReadMem(4 bytes @ 0xE0001000)
T12BC 001:234.478 - 3.684ms
T12BC 001:234.509 JLINK_IsHalted()
T12BC 001:237.776   CPU_ReadMem(2 bytes @ 0x30000000)
T12BC 001:238.417 - 3.965ms returns TRUE
T12BC 001:238.492 JLINK_ReadReg(R15 (PC))
T12BC 001:238.508 - 0.020ms returns 0x30000000
T12BC 001:238.519 JLINK_ClrBPEx(BPHandle = 0x0000000A)
T12BC 001:238.528 - 0.012ms returns 0x00
T12BC 001:238.538 JLINK_ReadReg(R0)
T12BC 001:238.546 - 0.012ms returns 0x00000001
T12BC 001:238.557 JLINK_HasError()
T12BC 001:238.568 JLINK_WriteReg(R0, 0x01006000)
T12BC 001:238.577 - 0.013ms returns 0
T12BC 001:238.588 JLINK_WriteReg(R1, 0x00001000)
T12BC 001:238.596 - 0.012ms returns 0
T12BC 001:238.606 JLINK_WriteReg(R2, 0x000000FF)
T12BC 001:238.614 - 0.012ms returns 0
T12BC 001:238.624 JLINK_WriteReg(R3, 0x00000000)
T12BC 001:238.632 - 0.012ms returns 0
T12BC 001:238.642 JLINK_WriteReg(R4, 0x00000000)
T12BC 001:238.650 - 0.012ms returns 0
T12BC 001:238.660 JLINK_WriteReg(R5, 0x00000000)
T12BC 001:238.668 - 0.012ms returns 0
T12BC 001:238.678 JLINK_WriteReg(R6, 0x00000000)
T12BC 001:238.686 - 0.011ms returns 0
T12BC 001:238.696 JLINK_WriteReg(R7, 0x00000000)
T12BC 001:238.704 - 0.011ms returns 0
T12BC 001:238.723 JLINK_WriteReg(R8, 0x00000000)
T12BC 001:238.732 - 0.012ms returns 0
T12BC 001:238.742 JLINK_WriteReg(R9, 0x30001BF0)
T12BC 001:238.750 - 0.012ms returns 0
T12BC 001:238.760 JLINK_WriteReg(R10, 0x00000000)
T12BC 001:238.768 - 0.012ms returns 0
T12BC 001:238.778 JLINK_WriteReg(R11, 0x00000000)
T12BC 001:238.786 - 0.011ms returns 0
T12BC 001:238.796 JLINK_WriteReg(R12, 0x00000000)
T12BC 001:238.804 - 0.012ms returns 0
T12BC 001:238.814 JLINK_WriteReg(R13 (SP), 0x3000F000)
T12BC 001:238.823 - 0.012ms returns 0
T12BC 001:238.833 JLINK_WriteReg(R14, 0x30000001)
T12BC 001:238.841 - 0.012ms returns 0
T12BC 001:238.851 JLINK_WriteReg(R15 (PC), 0x30000078)
T12BC 001:238.859 - 0.011ms returns 0
T12BC 001:238.869 JLINK_WriteReg(XPSR, 0x01000000)
T12BC 001:238.877 - 0.011ms returns 0
T12BC 001:238.886 JLINK_WriteReg(MSP, 0x3000F000)
T12BC 001:238.895 - 0.012ms returns 0
T12BC 001:238.905 JLINK_WriteReg(PSP, 0x3000F000)
T12BC 001:238.913 - 0.012ms returns 0
T12BC 001:238.923 JLINK_WriteReg(CFBP, 0x00000000)
T12BC 001:238.931 - 0.012ms returns 0
T12BC 001:238.941 JLINK_SetBPEx(Addr = 0x30000000, Type = 0xFFFFFFF2)
T12BC 001:238.951 - 0.013ms returns 0x0000000B
T12BC 001:238.961 JLINK_Go()
T12BC 001:238.979   CPU_ReadMem(4 bytes @ 0xE0001000)
T12BC 001:242.558 - 3.639ms
T12BC 001:242.619 JLINK_IsHalted()
T12BC 001:243.133 - 0.529ms returns FALSE
T12BC 001:243.163 JLINK_HasError()
T12BC 001:297.863 JLINK_IsHalted()
T12BC 001:301.169   CPU_ReadMem(2 bytes @ 0x30000000)
T12BC 001:301.767 - 3.916ms returns TRUE
T12BC 001:301.790 JLINK_ReadReg(R15 (PC))
T12BC 001:301.803 - 0.016ms returns 0x30000000
T12BC 001:301.813 JLINK_ClrBPEx(BPHandle = 0x0000000B)
T12BC 001:301.822 - 0.012ms returns 0x00
T12BC 001:301.832 JLINK_ReadReg(R0)
T12BC 001:301.840 - 0.012ms returns 0x00000000
T12BC 001:302.570 JLINK_HasError()
T12BC 001:302.589 JLINK_WriteReg(R0, 0x01007000)
T12BC 001:302.600 - 0.014ms returns 0
T12BC 001:302.610 JLINK_WriteReg(R1, 0x00001000)
T12BC 001:302.618 - 0.011ms returns 0
T12BC 001:302.627 JLINK_WriteReg(R2, 0x000000FF)
T12BC 001:302.635 - 0.011ms returns 0
T12BC 001:302.644 JLINK_WriteReg(R3, 0x00000000)
T12BC 001:302.652 - 0.011ms returns 0
T12BC 001:302.661 JLINK_WriteReg(R4, 0x00000000)
T12BC 001:302.673 - 0.019ms returns 0
T12BC 001:302.689 JLINK_WriteReg(R5, 0x00000000)
T12BC 001:302.707 - 0.027ms returns 0
T12BC 001:302.724 JLINK_WriteReg(R6, 0x00000000)
T12BC 001:302.734 - 0.013ms returns 0
T12BC 001:302.744 JLINK_WriteReg(R7, 0x00000000)
T12BC 001:302.754 - 0.014ms returns 0
T12BC 001:302.764 JLINK_WriteReg(R8, 0x00000000)
T12BC 001:302.773 - 0.012ms returns 0
T12BC 001:302.783 JLINK_WriteReg(R9, 0x30001BF0)
T12BC 001:302.792 - 0.012ms returns 0
T12BC 001:302.802 JLINK_WriteReg(R10, 0x00000000)
T12BC 001:302.809 - 0.011ms returns 0
T12BC 001:302.819 JLINK_WriteReg(R11, 0x00000000)
T12BC 001:302.826 - 0.011ms returns 0
T12BC 001:302.836 JLINK_WriteReg(R12, 0x00000000)
T12BC 001:302.843 - 0.011ms returns 0
T12BC 001:302.853 JLINK_WriteReg(R13 (SP), 0x3000F000)
T12BC 001:302.861 - 0.012ms returns 0
T12BC 001:302.870 JLINK_WriteReg(R14, 0x30000001)
T12BC 001:302.878 - 0.011ms returns 0
T12BC 001:302.887 JLINK_WriteReg(R15 (PC), 0x30000020)
T12BC 001:302.896 - 0.011ms returns 0
T12BC 001:302.905 JLINK_WriteReg(XPSR, 0x01000000)
T12BC 001:302.913 - 0.011ms returns 0
T12BC 001:302.922 JLINK_WriteReg(MSP, 0x3000F000)
T12BC 001:302.930 - 0.011ms returns 0
T12BC 001:302.939 JLINK_WriteReg(PSP, 0x3000F000)
T12BC 001:302.947 - 0.011ms returns 0
T12BC 001:302.956 JLINK_WriteReg(CFBP, 0x00000000)
T12BC 001:302.964 - 0.011ms returns 0
T12BC 001:302.973 JLINK_SetBPEx(Addr = 0x30000000, Type = 0xFFFFFFF2)
T12BC 001:302.982 - 0.012ms returns 0x0000000C
T12BC 001:302.992 JLINK_Go()
T12BC 001:303.008   CPU_ReadMem(4 bytes @ 0xE0001000)
T12BC 001:307.132 - 4.159ms
T12BC 001:307.162 JLINK_IsHalted()
T12BC 001:310.558   CPU_ReadMem(2 bytes @ 0x30000000)
T12BC 001:311.115 - 3.965ms returns TRUE
T12BC 001:311.139 JLINK_ReadReg(R15 (PC))
T12BC 001:311.152 - 0.016ms returns 0x30000000
T12BC 001:311.162 JLINK_ClrBPEx(BPHandle = 0x0000000C)
T12BC 001:311.171 - 0.012ms returns 0x00
T12BC 001:311.181 JLINK_ReadReg(R0)
T12BC 001:311.188 - 0.011ms returns 0x00000001
T12BC 001:311.199 JLINK_HasError()
T12BC 001:311.209 JLINK_WriteReg(R0, 0x01007000)
T12BC 001:311.218 - 0.012ms returns 0
T12BC 001:311.228 JLINK_WriteReg(R1, 0x00001000)
T12BC 001:311.235 - 0.011ms returns 0
T12BC 001:311.245 JLINK_WriteReg(R2, 0x000000FF)
T12BC 001:311.252 - 0.011ms returns 0
T12BC 001:311.262 JLINK_WriteReg(R3, 0x00000000)
T12BC 001:311.269 - 0.011ms returns 0
T12BC 001:311.279 JLINK_WriteReg(R4, 0x00000000)
T12BC 001:311.287 - 0.011ms returns 0
T12BC 001:311.296 JLINK_WriteReg(R5, 0x00000000)
T12BC 001:311.306 - 0.015ms returns 0
T12BC 001:311.320 JLINK_WriteReg(R6, 0x00000000)
T12BC 001:311.330 - 0.015ms returns 0
T12BC 001:311.342 JLINK_WriteReg(R7, 0x00000000)
T12BC 001:311.355 - 0.018ms returns 0
T12BC 001:311.370 JLINK_WriteReg(R8, 0x00000000)
T12BC 001:311.378 - 0.012ms returns 0
T12BC 001:311.388 JLINK_WriteReg(R9, 0x30001BF0)
T12BC 001:311.395 - 0.011ms returns 0
T12BC 001:311.405 JLINK_WriteReg(R10, 0x00000000)
T12BC 001:311.413 - 0.011ms returns 0
T12BC 001:311.422 JLINK_WriteReg(R11, 0x00000000)
T12BC 001:311.430 - 0.011ms returns 0
T12BC 001:311.439 JLINK_WriteReg(R12, 0x00000000)
T12BC 001:311.447 - 0.011ms returns 0
T12BC 001:311.456 JLINK_WriteReg(R13 (SP), 0x3000F000)
T12BC 001:311.464 - 0.011ms returns 0
T12BC 001:311.473 JLINK_WriteReg(R14, 0x30000001)
T12BC 001:311.481 - 0.011ms returns 0
T12BC 001:311.491 JLINK_WriteReg(R15 (PC), 0x30000078)
T12BC 001:311.498 - 0.011ms returns 0
T12BC 001:311.508 JLINK_WriteReg(XPSR, 0x01000000)
T12BC 001:311.515 - 0.011ms returns 0
T12BC 001:311.525 JLINK_WriteReg(MSP, 0x3000F000)
T12BC 001:311.532 - 0.011ms returns 0
T12BC 001:311.542 JLINK_WriteReg(PSP, 0x3000F000)
T12BC 001:311.549 - 0.011ms returns 0
T12BC 001:311.559 JLINK_WriteReg(CFBP, 0x00000000)
T12BC 001:311.566 - 0.011ms returns 0
T12BC 001:311.576 JLINK_SetBPEx(Addr = 0x30000000, Type = 0xFFFFFFF2)
T12BC 001:311.586 - 0.014ms returns 0x0000000D
T12BC 001:311.596 JLINK_Go()
T12BC 001:311.610   CPU_ReadMem(4 bytes @ 0xE0001000)
T12BC 001:315.312 - 3.734ms
T12BC 001:315.344 JLINK_IsHalted()
T12BC 001:315.847 - 0.512ms returns FALSE
T12BC 001:315.865 JLINK_HasError()
T12BC 001:317.411 JLINK_IsHalted()
T12BC 001:317.868 - 0.465ms returns FALSE
T12BC 001:317.885 JLINK_HasError()
T12BC 001:319.068 JLINK_IsHalted()
T12BC 001:319.695 - 0.643ms returns FALSE
T12BC 001:319.726 JLINK_HasError()
T12BC 001:320.913 JLINK_IsHalted()
T12BC 001:321.528 - 0.627ms returns FALSE
T12BC 001:321.553 JLINK_HasError()
T12BC 001:323.181 JLINK_IsHalted()
T12BC 001:323.817 - 0.647ms returns FALSE
T12BC 001:323.838 JLINK_HasError()
T12BC 001:325.169 JLINK_IsHalted()
T12BC 001:325.709 - 0.549ms returns FALSE
T12BC 001:325.728 JLINK_HasError()
T12BC 001:327.545 JLINK_IsHalted()
T12BC 001:331.290   CPU_ReadMem(2 bytes @ 0x30000000)
T12BC 001:331.827 - 4.296ms returns TRUE
T12BC 001:331.856 JLINK_ReadReg(R15 (PC))
T12BC 001:331.872 - 0.021ms returns 0x30000000
T12BC 001:331.886 JLINK_ClrBPEx(BPHandle = 0x0000000D)
T12BC 001:331.898 - 0.020ms returns 0x00
T12BC 001:331.916 JLINK_ReadReg(R0)
T12BC 001:331.930 - 0.019ms returns 0x00000000
T12BC 001:332.810 JLINK_HasError()
T12BC 001:332.836 JLINK_WriteReg(R0, 0x01008000)
T12BC 001:332.851 - 0.020ms returns 0
T12BC 001:332.867 JLINK_WriteReg(R1, 0x00001000)
T12BC 001:332.878 - 0.017ms returns 0
T12BC 001:332.891 JLINK_WriteReg(R2, 0x000000FF)
T12BC 001:332.903 - 0.016ms returns 0
T12BC 001:332.916 JLINK_WriteReg(R3, 0x00000000)
T12BC 001:332.929 - 0.018ms returns 0
T12BC 001:332.942 JLINK_WriteReg(R4, 0x00000000)
T12BC 001:332.953 - 0.016ms returns 0
T12BC 001:332.965 JLINK_WriteReg(R5, 0x00000000)
T12BC 001:332.976 - 0.016ms returns 0
T12BC 001:332.989 JLINK_WriteReg(R6, 0x00000000)
T12BC 001:332.999 - 0.015ms returns 0
T12BC 001:333.012 JLINK_WriteReg(R7, 0x00000000)
T12BC 001:333.023 - 0.016ms returns 0
T12BC 001:333.036 JLINK_WriteReg(R8, 0x00000000)
T12BC 001:333.047 - 0.016ms returns 0
T12BC 001:333.060 JLINK_WriteReg(R9, 0x30001BF0)
T12BC 001:333.071 - 0.016ms returns 0
T12BC 001:333.084 JLINK_WriteReg(R10, 0x00000000)
T12BC 001:333.095 - 0.018ms returns 0
T12BC 001:333.110 JLINK_WriteReg(R11, 0x00000000)
T12BC 001:333.121 - 0.016ms returns 0
T12BC 001:333.134 JLINK_WriteReg(R12, 0x00000000)
T12BC 001:333.145 - 0.016ms returns 0
T12BC 001:333.157 JLINK_WriteReg(R13 (SP), 0x3000F000)
T12BC 001:333.169 - 0.017ms returns 0
T12BC 001:333.183 JLINK_WriteReg(R14, 0x30000001)
T12BC 001:333.194 - 0.017ms returns 0
T12BC 001:333.208 JLINK_WriteReg(R15 (PC), 0x30000020)
T12BC 001:333.219 - 0.016ms returns 0
T12BC 001:333.232 JLINK_WriteReg(XPSR, 0x01000000)
T12BC 001:333.242 - 0.015ms returns 0
T12BC 001:333.254 JLINK_WriteReg(MSP, 0x3000F000)
T12BC 001:333.265 - 0.015ms returns 0
T12BC 001:333.278 JLINK_WriteReg(PSP, 0x3000F000)
T12BC 001:333.289 - 0.016ms returns 0
T12BC 001:333.302 JLINK_WriteReg(CFBP, 0x00000000)
T12BC 001:333.313 - 0.016ms returns 0
T12BC 001:333.326 JLINK_SetBPEx(Addr = 0x30000000, Type = 0xFFFFFFF2)
T12BC 001:333.338 - 0.017ms returns 0x0000000E
T12BC 001:333.351 JLINK_Go()
T12BC 001:333.375   CPU_ReadMem(4 bytes @ 0xE0001000)
T12BC 001:337.065 - 3.732ms
T12BC 001:337.094 JLINK_IsHalted()
T12BC 001:340.165   CPU_ReadMem(2 bytes @ 0x30000000)
T12BC 001:340.713 - 3.627ms returns TRUE
T12BC 001:340.732 JLINK_ReadReg(R15 (PC))
T12BC 001:340.743 - 0.014ms returns 0x30000000
T12BC 001:340.753 JLINK_ClrBPEx(BPHandle = 0x0000000E)
T12BC 001:340.761 - 0.011ms returns 0x00
T12BC 001:340.770 JLINK_ReadReg(R0)
T12BC 001:340.778 - 0.011ms returns 0x00000001
T12BC 001:340.788 JLINK_HasError()
T12BC 001:340.798 JLINK_WriteReg(R0, 0x01008000)
T12BC 001:340.806 - 0.011ms returns 0
T12BC 001:340.815 JLINK_WriteReg(R1, 0x00001000)
T12BC 001:340.823 - 0.011ms returns 0
T12BC 001:340.832 JLINK_WriteReg(R2, 0x000000FF)
T12BC 001:340.839 - 0.011ms returns 0
T12BC 001:340.848 JLINK_WriteReg(R3, 0x00000000)
T12BC 001:340.856 - 0.010ms returns 0
T12BC 001:340.865 JLINK_WriteReg(R4, 0x00000000)
T12BC 001:340.872 - 0.010ms returns 0
T12BC 001:340.881 JLINK_WriteReg(R5, 0x00000000)
T12BC 001:340.893 - 0.017ms returns 0
T12BC 001:340.905 JLINK_WriteReg(R6, 0x00000000)
T12BC 001:340.912 - 0.011ms returns 0
T12BC 001:340.921 JLINK_WriteReg(R7, 0x00000000)
T12BC 001:340.931 - 0.013ms returns 0
T12BC 001:340.940 JLINK_WriteReg(R8, 0x00000000)
T12BC 001:340.948 - 0.011ms returns 0
T12BC 001:340.957 JLINK_WriteReg(R9, 0x30001BF0)
T12BC 001:340.965 - 0.010ms returns 0
T12BC 001:340.974 JLINK_WriteReg(R10, 0x00000000)
T12BC 001:340.981 - 0.010ms returns 0
T12BC 001:340.990 JLINK_WriteReg(R11, 0x00000000)
T12BC 001:340.997 - 0.010ms returns 0
T12BC 001:341.006 JLINK_WriteReg(R12, 0x00000000)
T12BC 001:341.013 - 0.010ms returns 0
T12BC 001:341.022 JLINK_WriteReg(R13 (SP), 0x3000F000)
T12BC 001:341.029 - 0.011ms returns 0
T12BC 001:341.038 JLINK_WriteReg(R14, 0x30000001)
T12BC 001:341.046 - 0.010ms returns 0
T12BC 001:341.054 JLINK_WriteReg(R15 (PC), 0x30000078)
T12BC 001:341.062 - 0.010ms returns 0
T12BC 001:341.071 JLINK_WriteReg(XPSR, 0x01000000)
T12BC 001:341.078 - 0.010ms returns 0
T12BC 001:341.087 JLINK_WriteReg(MSP, 0x3000F000)
T12BC 001:341.094 - 0.010ms returns 0
T12BC 001:341.103 JLINK_WriteReg(PSP, 0x3000F000)
T12BC 001:341.110 - 0.010ms returns 0
T12BC 001:341.119 JLINK_WriteReg(CFBP, 0x00000000)
T12BC 001:341.126 - 0.010ms returns 0
T12BC 001:341.135 JLINK_SetBPEx(Addr = 0x30000000, Type = 0xFFFFFFF2)
T12BC 001:341.143 - 0.011ms returns 0x0000000F
T12BC 001:341.153 JLINK_Go()
T12BC 001:341.178   CPU_ReadMem(4 bytes @ 0xE0001000)
T12BC 001:345.070 - 4.047ms
T12BC 001:345.219 JLINK_IsHalted()
T12BC 001:345.822 - 0.617ms returns FALSE
T12BC 001:345.850 JLINK_HasError()
T12BC 001:411.726 JLINK_IsHalted()
T12BC 001:415.088   CPU_ReadMem(2 bytes @ 0x30000000)
T12BC 001:415.670 - 3.958ms returns TRUE
T12BC 001:415.709 JLINK_ReadReg(R15 (PC))
T12BC 001:415.722 - 0.017ms returns 0x30000000
